
**** 11/10/22 11:19:57 ******* PSpice 17.4.0 (Nov 2018) ******* ID# 0 ********

 ** Profile: "SCHEMATIC1-test"  [ C:\Modeling\TLV3604_ti\TLV3604-PSpiceFiles\SCHEMATIC1\test.sim ] 


 ****     CIRCUIT DESCRIPTION


******************************************************************************




** Creating circuit file "test.cir" 
** WARNING: THIS AUTOMATICALLY GENERATED FILE MAY BE OVERWRITTEN BY SUBSEQUENT SIMULATIONS

*Libraries: 
* Profile Libraries :
* Local Libraries :
.LIB "../../../tlv3604.lib" 
* From [PSPICE NETLIST] section of C:\SPB_DATA\cdssetup\OrCAD_PSpice\17.4.0\PSpice.ini file:
.lib "nom.lib" 

*Analysis directives: 
.TRAN  0 40u 0 
.OPTIONS ADVCONV
.OPTIONS FILEMODELSEARCH
.PROBE64 V(alias(*)) I(alias(*)) W(alias(*)) D(alias(*)) NOISE(alias(*)) 
.INC "..\SCHEMATIC1.net" 



**** INCLUDING SCHEMATIC1.net ****
* source TLV3604
.EXTERNAL INPUT OUT-
.EXTERNAL INPUT GND
.EXTERNAL INPUT OUT+
.EXTERNAL INPUT IN-
.EXTERNAL INPUT IN+
.EXTERNAL INPUT VCC
X_U1         IN+ IN- VCC GND OUT+ OUT- TLV3604
R_R3         OUT- OUT+  100 TC=0,0 
R_R7         0 GND  1m TC=0,0 
R_R6         0 N859551  1m TC=0,0 
R_R4         0 N859507  1m TC=0,0 
V_VINN2         VCC N859507 5
V_V1         IN+ 0  
+SIN 2.5 100m 100k 0 0 0
V_VINN         IN- N859551 2.5

**** RESUMING test.cir ****
.END

**** 11/10/22 11:19:57 ******* PSpice 17.4.0 (Nov 2018) ******* ID# 0 ********

 ** Profile: "SCHEMATIC1-test"  [ C:\Modeling\TLV3604_ti\TLV3604-PSpiceFiles\SCHEMATIC1\test.sim ] 


 ****     Diode MODEL PARAMETERS


******************************************************************************




               X_U1.X_DESD3.model22 
          IS   10.000000E-15 
          BV  100            
          RS    5            


               X_U1.X_DESD4.model22 
          IS   10.000000E-15 
          BV  100            
          RS    5            


               X_U1.X_DESD5.model22 
          IS   10.000000E-15 
          BV  100            
          RS    5            


               X_U1.X_DESD2.model22 
          IS   10.000000E-15 
          BV  100            
          RS    5            


**** 11/10/22 11:19:57 ******* PSpice 17.4.0 (Nov 2018) ******* ID# 0 ********

 ** Profile: "SCHEMATIC1-test"  [ C:\Modeling\TLV3604_ti\TLV3604-PSpiceFiles\SCHEMATIC1\test.sim ] 


 ****     Voltage Controlled Switch MODEL PARAMETERS


******************************************************************************




               X_U1.X_U5.X_S3._S3 
         RON    1            
        ROFF    1.000000E+12 
         VON    2.5          
        VOFF    1.25         


               X_U1.X_U5.X_S16._S16 
         RON    1            
        ROFF    1.000000E+12 
         VON    0            
        VOFF    1            


               X_U1.X_U5.X_S4._S4 
         RON    1            
        ROFF    1.000000E+12 
         VON   -1.25         
        VOFF   -2.5          


               X_U1.X_U5.X_S17._S17 
         RON    1            
        ROFF    1.000000E+12 
         VON    0            
        VOFF    1            


               X_U1.X_U5.X_S6._S6 
         RON    1            
        ROFF    1.000000E+12 
         VON    2.5          
        VOFF    1.25         


               X_U1.X_U5.X_S5._S5 
         RON    1            
        ROFF    1.000000E+12 
         VON   -1.25         
        VOFF   -2.5          


**** 11/10/22 11:19:57 ******* PSpice 17.4.0 (Nov 2018) ******* ID# 0 ********

 ** Profile: "SCHEMATIC1-test"  [ C:\Modeling\TLV3604_ti\TLV3604-PSpiceFiles\SCHEMATIC1\test.sim ] 


 ****     INITIAL TRANSIENT SOLUTION       TEMPERATURE =   27.000 DEG C


******************************************************************************



 NODE   VOLTAGE     NODE   VOLTAGE     NODE   VOLTAGE     NODE   VOLTAGE


(  GND) 12.10E-06  (  IN+)    2.5000  (  IN-)    2.5000  (  VCC)    5.0000      

( OUT+)    1.0751  ( OUT-)    1.4245  (N859507)-12.10E-06                       

(N859551)-1.000E-09                   (X_U1.IN+BUFF)    2.5000                  

(X_U1.IN-BUFF)    2.5000              (X_U1.INRANGE) 12.10E-06                  

(X_U1.N881909)    5.0000              (X_U1.N881945)    0.0000                  

(X_U1.N882073)    2.4995              (X_U1.N882279) 11.98E-06                  

(X_U1.N882289) 5.991E-06              (X_U1.N882337)-119.8E-09                  

(X_U1.N882457)    0.0000              (X_U1.X_U3.VH)    0.0000                  

(X_U1.X_U5.1V)    1.0000              (X_U1.X_U7.1V)    1.0000                  

(X_U1.X_U3.OUT) 12.10E-06             (X_U1.X_U7.POR)    0.0000                 

(X_U1.X_U3.VMID)    2.5000            (X_U1.VCC_BUFFER)    5.0000               

(X_U1.VEE_BUFFER) 12.10E-06           (X_U1.X_U5.LOWER)    1.0677               

(X_U1.X_U5.UPPER)    1.4319           (X_U1.X_U2.N20155)    5.3000              

(X_U1.X_U2.N20415)    -.3000          (X_U1.X_U2.N20531) 12.10E-06              

(X_U1.X_U2.N20539)    -.3000          (X_U1.X_U2.N20826) 12.10E-06              

(X_U1.X_U2.N20833) 12.10E-06          (X_U1.X_U2.N20840) 12.10E-06              

(X_U1.X_U3.INNNEW)    2.5000          (X_U1.X_U4.N03175) 5.991E-06              

(X_U1.X_U5.X_U2.4)    0.0000          (X_U1.X_U2.N202710)    5.3000             

(X_U1.X_U2.X_U24.6) 12.10E-06         (X_U1.X_U5.N871584)    1.4284             

(X_U1.X_U5.N871636)    1.0716         (X_U1.X_U5.N871682)    1.0713             

(X_U1.X_U5.N871848)    1.4280         (X_U1.X_U5.N877529)   -1.4355             

(X_U1.X_U5.N881317)   -1.0642         (X_U1.X_U5.N881854)    1.2000             

(X_U1.X_U7.N784593)    5.5600         (X_U1.X_U7.N784683)    5.0000             

(X_U1.X_U7.N784697)    0.0000         (X_U1.X_U7.N784807)    0.0000             

(X_U1.X_U7.N784909)    2.3900         (X_U1.X_U7.N785081)    2.3900             

(X_U1.X_U7.X_U17.4)    0.0000         (X_U1.X_U5.N8798211)    1.4355            

(X_U1.X_U5.N8812391)    1.0642        (X_U1.X_U2.X_U1.OUT2) 12.10E-06           

(X_U1.X_U5.X_U3.OUT1)    1.4355       (X_U1.X_U5.X_U7.OUT1)   -1.4355           

(X_U1.X_U5.X_U8.OUT1)    1.0642       (X_U1.X_U5.X_U9.OUT1)   -1.0642           

(X_U1.X_U7.X_U5.OUT2)    0.0000       (X_U1.X_U2.X_U21.OUT2) 12.10E-06          

(X_U1.X_U2.X_U22.OUT2) 12.10E-06      (X_U1.X_U2.X_U23.OUT2) 12.10E-06          

(X_U1.X_U5.OUTOFRANGE)    0.0000      (X_U1.X_U7.X_U13.OUT1)    5.0000          

(X_U1.X_U7.X_U15.OUT2)    0.0000      (X_U1.X_U7.X_U16.OUT2)    0.0000      




    VOLTAGE SOURCE CURRENTS
    NAME         CURRENT

    V_VINN2     -1.210E-02
    V_V1        -1.000E-06
    V_VINN      -1.000E-06
    X_U1.V_VHYST   0.000E+00
    X_U1.V_VOS   0.000E+00
    X_U1.X_U2.V_VCMNN   0.000E+00
    X_U1.X_U2.V_VCMPN   0.000E+00
    X_U1.X_U2.V_VCMNP   0.000E+00
    X_U1.X_U2.V_VCMPP   0.000E+00
    X_U1.X_U7.V_VS_MAX_SET   0.000E+00
    X_U1.X_U7.V_VLOGIC   0.000E+00
    X_U1.X_U7.V_VS_MIN_SET1   0.000E+00
    X_U1.X_U7.V_VS_MIN_SET   0.000E+00
    X_U1.X_U5.V_V12   2.847E-05
    X_U1.X_U5.V_V10   0.000E+00
    X_U1.X_U5.V_V11   0.000E+00
    X_U1.X_U5.V_VLOGIC   0.000E+00

    TOTAL POWER DISSIPATION   6.05E-02  WATTS



          JOB CONCLUDED

**** 11/10/22 11:19:57 ******* PSpice 17.4.0 (Nov 2018) ******* ID# 0 ********

 ** Profile: "SCHEMATIC1-test"  [ C:\Modeling\TLV3604_ti\TLV3604-PSpiceFiles\SCHEMATIC1\test.sim ] 


 ****     JOB STATISTICS SUMMARY


******************************************************************************



  License check-out time            =       23.50
  Total job time (using Solver 1)   =        9.64
